
T3C0C 000:082 SEGGER J-Link V4.58a Log File (0002ms, 0084ms total)
T3C0C 000:082 DLL Compiled: Dec  5 2012 18:38:08 (0002ms, 0084ms total)
T3C0C 000:082 Logging started @ 2017-04-26 14:20 (0003ms, 0085ms total)
T3C0C 000:085 JLINK_SetWarnOutHandler(...) (0000ms, 0085ms total)
T3C0C 000:085 JLINK_OpenEx(...)
Firmware: J-Link ARM V8 compiled Nov 14 2012 22:34:52
Hardware: V8.00
S/N: 304427281
Feature(s): RDI,FlashDL,FlashBP,JFlash,GDBFULL  returns O.K. (0038ms, 0123ms total)
T3C0C 000:123 JLINK_SetErrorOutHandler(...) (0000ms, 0123ms total)
T3C0C 000:123 JLINK_ExecCommand("ProjectFile = "D:\bs\wireless\201704191317\slave\Project\RVMDK£¨uv4£©\JLinkSettings.ini"", ...)  returns 0x00 (0001ms, 0124ms total)
T3C0C 000:141 JLINK_ExecCommand("Device = STM32F103ZE", ...)
                JLINK_ExecCommand("map ram 0x20000000 - 0x2000FFFF", ...)  returns 0x00 (0000ms, 0000ms total)
                JLINK_AddMirrorAreaEx(Addr = 0x00000000, Size = 0x00000000) (0000ms, 0000ms total)
              Device "STM32F103ZE" selected (512 KB flash, 64 KB RAM).  returns 0x00 (0035ms, 0159ms total)
T3C0C 000:176 JLINK_ExecCommand("DisableConnectionTimeout", ...)  returns 0x00 (0000ms, 0159ms total)
T3C0C 000:176 JLINK_GetHardwareVersion()  returns 0x13880 (0000ms, 0159ms total)
T3C0C 000:176 JLINK_GetDLLVersion()  returns 45801 (0000ms, 0159ms total)
T3C0C 000:176 JLINK_GetFirmwareString(...) (0000ms, 0159ms total)
T3C0C 000:220 JLINK_GetDLLVersion()  returns 45801 (0000ms, 0159ms total)
T3C0C 000:220 JLINK_GetCompileDateTime() (0000ms, 0159ms total)
T3C0C 000:231 JLINK_GetFirmwareString(...) (0001ms, 0160ms total)
T3C0C 000:248 JLINK_GetHardwareVersion()  returns 0x13880 (0000ms, 0160ms total)
T3C0C 000:293 JLINK_TIF_Select(JLINKARM_TIF_JTAG)  returns 0x00 (0000ms, 0160ms total)
T3C0C 000:293 JLINK_SetSpeed(2000) (0001ms, 0161ms total)
T3C0C 000:294 JLINK_GetIdData(...) >0x2F8 JTAG>TotalIRLen = 9, IRPrint = 0x0011 >0x30 JTAG> >0x210 JTAG> >0x40 JTAG> >0x40 JTAG> >0x40 JTAG> >0x30 JTAG> >0x40 JTAG> >0x40 JTAG> >0x40 JTAG> >0x40 JTAG> >0x40 JTAG> >0x40 JTAG> >0x40 JTAG> >0x40 JTAG> >0x2F8 JTAG>TotalIRLen = 9, IRPrint = 0x0011 >0x30 JTAG> >0x210 JTAG> >0x80 JTAG> >0x40 JTAG> >0x40 JTAG> >0x50 JTAG> >0x40 JTAG> >0x40 JTAG> >0x40 JTAG> >0x50 JTAG> >0x40 JTAG> >0x40 JTAG> >0x40 JTAG> >0x30 JTAG> >0x40 JTAG> >0x50 JTAG> >0x40 JTAG>
 >0x38 JTAG> >0x80 JTAG> >0x40 JTAG> >0x40 JTAG> >0x50 JTAG> >0x40 JTAG> >0x40 JTAG> >0x40 JTAG> >0x50 JTAG> >0x40 JTAG> >0x40 JTAG> >0x30 JTAG> >0x40 JTAG> >0x40 JTAG> >0x40 JTAG> >0x40 JTAG> >0x40 JTAG> >0x50 JTAG> >0x40 JTAG> >0x80 JTAG> >0x40 JTAG> >0x30 JTAG> >0x40 JTAG> >0x40 JTAG> >0x40 JTAG> >0x40 JTAG> >0x40 JTAG> >0x50 JTAG> >0x40 JTAG> >0x80 JTAG> >0x40 JTAG> >0x30 JTAG> >0x40 JTAG> >0x50 JTAG> >0x40 JTAG> >0x40 JTAG> >0x40 JTAG> >0x30 JTAG> >0x40 JTAG> >0x50 JTAG> >0x40 JTAG>
Found Cortex-M3 r1p1, Little endian. >0x50 JTAG> >0x50 JTAG> >0x40 JTAG> >0x40 JTAG> >0x30 JTAG> >0x30 JTAG> >0x50 JTAG> >0x40 JTAG> >0x80 JTAG> >0x40 JTAG> >0x30 JTAG> >0x40 JTAG> >0x50 JTAG> >0x40 JTAG> >0x40 JTAG> >0x40 JTAG> >0x30 JTAG> >0x40 JTAG> >0x50 JTAG> >0x40 JTAG>TPIU fitted. >0x40 JTAG> >0x40 JTAG> >0x30 JTAG> >0x40 JTAG> >0x50 JTAG> >0x40 JTAG>ETM fitted. >0x40 JTAG> >0x40 JTAG> >0x30 JTAG> >0x40 JTAG> >0x50 JTAG> >0x40 JTAG> >0x40 JTAG> >0x40 JTAG> >0x30 JTAG> >0x40 JTAG> >0x50 JTAG>
 >0x40 JTAG>FPUnit: 6 code (BP) slots and 2 literal slots >0x40 JTAG> >0x40 JTAG> >0x30 JTAG> >0x40 JTAG> >0x50 JTAG> >0x40 JTAG> >0x40 JTAG> >0x40 JTAG> >0x30 JTAG> >0x40 JTAG> >0x50 JTAG> >0x40 JTAG> >0x40 JTAG> >0x40 JTAG> >0x30 JTAG> >0x30 JTAG> >0x50 JTAG> >0x40 JTAG> ScanLen=9 NumDevices=2 aId[0]=0x3BA00477 aIrRead[0]=0 aScanLen[0]=0 aScanRead[0]=0 (0226ms, 0387ms total)
T3C0C 000:520 JLINK_JTAG_GetDeviceID(DeviceIndex = 0)  returns 0x3BA00477 (0000ms, 0387ms total)
T3C0C 000:520 JLINK_JTAG_GetDeviceInfo(DeviceIndex = 0)  returns 0x00 (0001ms, 0388ms total)
T3C0C 000:521 JLINK_JTAG_GetDeviceID(DeviceIndex = 1)  returns 0x6414041 (0000ms, 0388ms total)
T3C0C 000:521 JLINK_JTAG_GetDeviceInfo(DeviceIndex = 1)  returns 0x00 (0000ms, 0388ms total)
T3C0C 000:521 JLINK_GetDeviceFamily()  returns 3 (0000ms, 0388ms total)
T3C0C 000:543 JLINK_ReadMem (0xE00FFFF0, 0x0010 Bytes, ...) -- CPU is running -- CPU_ReadMem(16 bytes @ 0xE00FFFF0) -- Data:  0D 00 00 00 10 00 00 00 05 00 00 00 B1 00 00 00  returns 0x00 (0005ms, 0393ms total)
T3C0C 000:548 JLINK_ReadMem (0xE00FFFD0, 0x0020 Bytes, ...) -- CPU is running -- CPU_ReadMem(32 bytes @ 0xE00FFFD0) -- Data:  00 00 00 00 00 00 00 00 00 00 00 00 00 00 00 00 ...  returns 0x00 (0002ms, 0395ms total)
T3C0C 000:550 JLINK_ReadMem (0xE00FF000, 0x0018 Bytes, ...) -- CPU is running -- CPU_ReadMem(24 bytes @ 0xE00FF000) -- Data:  03 F0 F0 FF 03 20 F0 FF 03 30 F0 FF 03 10 F0 FF ...  returns 0x00 (0002ms, 0397ms total)
T3C0C 000:552 JLINK_ReadMemU32(0xE000ED00, 0x0001 Items, ...) -- CPU is running -- CPU_ReadMem(4 bytes @ 0xE000ED00) -- Data:  31 C2 1F 41  returns 0x01 (0002ms, 0399ms total)
T3C0C 000:554 JLINK_SetResetType(JLINKARM_RESET_TYPE_NORMAL)  returns JLINKARM_RESET_TYPE_NORMAL (0000ms, 0399ms total)
T3C0C 000:554 JLINK_Reset() >0x88 JTAG> >0x80 JTAG> >0x40 JTAG> >0x40 JTAG> >0x50 JTAG> >0x40 JTAG> >0x40 JTAG> >0x40 JTAG> >0x50 JTAG> >0x40 JTAG> >0x40 JTAG> >0x30 JTAG> >0x40 JTAG> >0x40 JTAG> >0x40 JTAG> >0x40 JTAG> >0x40 JTAG> >0x50 JTAG> >0x40 JTAG> >0x80 JTAG> >0x40 JTAG> >0x30 JTAG> >0x40 JTAG> >0x40 JTAG> >0x40 JTAG> >0x40 JTAG> >0x40 JTAG> >0x50 JTAG> >0x40 JTAG> >0x80 JTAG> >0x40 JTAG> >0x30 JTAG> >0x40 JTAG> >0x50 JTAG> >0x40 JTAG> >0x40 JTAG> >0x40 JTAG> >0x30 JTAG> >0x40 JTAG> >0x50 JTAG>
 >0x40 JTAG>Found Cortex-M3 r1p1, Little endian. >0x50 JTAG> >0x50 JTAG> >0x40 JTAG> >0x40 JTAG> >0x30 JTAG> >0x30 JTAG> >0x50 JTAG> >0x40 JTAG> >0x80 JTAG> >0x40 JTAG> >0x30 JTAG> >0x40 JTAG> >0x50 JTAG> >0x40 JTAG> >0x40 JTAG> >0x40 JTAG> >0x30 JTAG> >0x40 JTAG> >0x50 JTAG> >0x40 JTAG>TPIU fitted. >0x40 JTAG> >0x40 JTAG> >0x30 JTAG> >0x40 JTAG> >0x50 JTAG> >0x40 JTAG>ETM fitted. >0x40 JTAG> >0x40 JTAG> >0x30 JTAG> >0x40 JTAG> >0x50 JTAG> >0x40 JTAG> >0x40 JTAG> >0x40 JTAG> >0x30 JTAG> >0x40 JTAG>
 >0x50 JTAG> >0x40 JTAG>FPUnit: 6 code (BP) slots and 2 literal slots >0x40 JTAG> >0x40 JTAG> >0x30 JTAG> >0x40 JTAG> >0x50 JTAG> >0x40 JTAG> >0x40 JTAG> >0x40 JTAG> >0x30 JTAG> >0x40 JTAG> >0x50 JTAG> >0x40 JTAG> >0x40 JTAG> >0x40 JTAG> >0x30 JTAG> >0x30 JTAG> >0x50 JTAG> >0x40 JTAG> -- CPU is running -- CPU_WriteMem(4 bytes @ 0xE000EDF0) -- CPU is running -- CPU_WriteMem(4 bytes @ 0xE000EDFC) -- CPU is running -- CPU_WriteMem(4 bytes @ 0xE000ED0C) -- CPU is running -- CPU_ReadMem(4 bytes @ 0xE000EDF0)
 -- CPU is running -- CPU_ReadMem(4 bytes @ 0xE000EDF0) -- CPU is running -- CPU_WriteMem(4 bytes @ 0xE000EDF0) -- CPU is running -- CPU_WriteMem(4 bytes @ 0xE000EDFC) -- CPU is running -- CPU_ReadMem(4 bytes @ 0xE000EDF0) >0xD0 JTAG> >0x40 JTAG> >0x30 JTAG> >0x40 JTAG> >0x50 JTAG> >0x40 JTAG> -- CPU_WriteMem(4 bytes @ 0xE000EDFC) -- CPU_WriteMem(4 bytes @ 0xE0001028) -- CPU_WriteMem(4 bytes @ 0xE0001038) -- CPU_WriteMem(4 bytes @ 0xE0001048) -- CPU_WriteMem(4 bytes @ 0xE0001058)
 -- CPU_WriteMem(4 bytes @ 0xE0002000) (0202ms, 0601ms total)
T3C0C 000:756 JLINK_Halt()  returns 0x00 (0000ms, 0601ms total)
T3C0C 000:756 JLINK_IsHalted()  returns TRUE (0000ms, 0601ms total)
T3C0C 000:756 JLINK_ReadMemU32(0xE000EDF0, 0x0001 Items, ...) -- CPU_ReadMem(4 bytes @ 0xE000EDF0) -- Data:  03 00 03 00  returns 0x01 (0002ms, 0603ms total)
T3C0C 000:758 JLINK_WriteU32(0xE000EDF0, 0xA05F0003) -- CPU_WriteMem(4 bytes @ 0xE000EDF0)  returns 0x00 (0001ms, 0604ms total)
T3C0C 000:759 JLINK_WriteU32(0xE000EDFC, 0x01000000) -- CPU_WriteMem(4 bytes @ 0xE000EDFC)  returns 0x00 (0002ms, 0606ms total)
T3C0C 000:811 JLINK_GetHWStatus(...)  returns 0x00 (0001ms, 0607ms total)
T3C0C 000:844 JLINK_GetNumBPUnits(Type = 0xFFFFFF00)  returns 0x06 (0000ms, 0607ms total)
T3C0C 000:844 JLINK_GetNumBPUnits(Type = 0xF0)  returns 0x2000 (0000ms, 0607ms total)
T3C0C 000:844 JLINK_GetNumWPUnits()  returns 0x04 (0000ms, 0607ms total)
T3C0C 000:880 JLINK_GetSpeed()  returns 0x7D0 (0000ms, 0608ms total)
T3C0C 000:903 JLINK_ReadMemU32(0xE000E004, 0x0001 Items, ...) -- CPU_ReadMem(4 bytes @ 0xE000E004) -- Data:  01 00 00 00  returns 0x01 (0002ms, 0610ms total)
T3C0C 000:905 JLINK_ReadMemU32(0xE000E004, 0x0001 Items, ...) -- CPU_ReadMem(4 bytes @ 0xE000E004) -- Data:  01 00 00 00  returns 0x01 (0001ms, 0611ms total)
T3C0C 000:906 JLINK_WriteMem(0xE0001000, 0x001C Bytes, ...) -- Data:  01 00 00 00 00 00 00 00 00 00 00 00 00 00 00 00 ... -- CPU_WriteMem(28 bytes @ 0xE0001000)  returns 0x1C (0002ms, 0613ms total)
T3C0C 000:908 JLINK_ReadMem (0xE0001000, 0x001C Bytes, ...) -- CPU_ReadMem(28 bytes @ 0xE0001000) -- Data:  01 00 00 40 00 00 00 00 00 00 00 00 00 00 00 00 ...  returns 0x00 (0002ms, 0615ms total)
T3C0C 000:910 JLINK_Halt()  returns 0x00 (0000ms, 0615ms total)
T3C0C 000:910 JLINK_IsHalted()  returns TRUE (0000ms, 0615ms total)
T3C0C 000:920 JLINK_WriteMem(0x20000000, 0x0164 Bytes, ...) -- Data:  00 BE 0A E0 0D 78 2D 06 68 40 08 24 40 00 00 D3 ... -- CPU_WriteMem(356 bytes @ 0x20000000)  returns 0x164 (0004ms, 0619ms total)
T3C0C 000:924 JLINK_WriteReg(R0, 0x08000000)  returns 0x00 (0000ms, 0619ms total)
T3C0C 000:924 JLINK_WriteReg(R1, 0x007A1200)  returns 0x00 (0000ms, 0619ms total)
T3C0C 000:924 JLINK_WriteReg(R2, 0x00000001)  returns 0x00 (0001ms, 0620ms total)
T3C0C 000:925 JLINK_WriteReg(R3, 0x00000000)  returns 0x00 (0000ms, 0620ms total)
T3C0C 000:925 JLINK_WriteReg(R4, 0x00000000)  returns 0x00 (0000ms, 0620ms total)
T3C0C 000:925 JLINK_WriteReg(R5, 0x00000000)  returns 0x00 (0000ms, 0620ms total)
T3C0C 000:925 JLINK_WriteReg(R6, 0x00000000)  returns 0x00 (0000ms, 0620ms total)
T3C0C 000:925 JLINK_WriteReg(R7, 0x00000000)  returns 0x00 (0000ms, 0620ms total)
T3C0C 000:925 JLINK_WriteReg(R8, 0x00000000)  returns 0x00 (0000ms, 0620ms total)
T3C0C 000:925 JLINK_WriteReg(R9, 0x20000160)  returns 0x00 (0000ms, 0620ms total)
T3C0C 000:925 JLINK_WriteReg(R10, 0x00000000)  returns 0x00 (0000ms, 0620ms total)
T3C0C 000:925 JLINK_WriteReg(R11, 0x00000000)  returns 0x00 (0000ms, 0620ms total)
T3C0C 000:925 JLINK_WriteReg(R12, 0x00000000)  returns 0x00 (0000ms, 0620ms total)
T3C0C 000:925 JLINK_WriteReg(R13, 0x20000800)  returns 0x00 (0000ms, 0620ms total)
T3C0C 000:925 JLINK_WriteReg(R14, 0x20000001)  returns 0x00 (0000ms, 0620ms total)
T3C0C 000:925 JLINK_WriteReg(R15, 0x20000038)  returns 0x00 (0000ms, 0620ms total)
T3C0C 000:926 JLINK_WriteReg(XPSR, 0x01000000)  returns 0x00 (0000ms, 0620ms total)
T3C0C 000:926 JLINK_WriteReg(MSP, 0x20000800)  returns 0x00 (0000ms, 0620ms total)
T3C0C 000:926 JLINK_WriteReg(PSP, 0x20000800)  returns 0x00 (0000ms, 0620ms total)
T3C0C 000:926 JLINK_WriteReg(CFBP, 0x00000000)  returns 0x00 (0000ms, 0620ms total)
T3C0C 000:926 JLINK_SetBPEx(Addr = 0x20000000, Type = 0xFFFFFFF2) -- CPU_ReadMem(2 bytes @ 0x20000000)  returns 0x00000001 (0002ms, 0622ms total)
T3C0C 000:928 JLINK_Go() -- CPU_WriteMem(2 bytes @ 0x20000000) -- CPU_WriteMem(4 bytes @ 0xE0002008) -- CPU_WriteMem(4 bytes @ 0xE000200C) -- CPU_WriteMem(4 bytes @ 0xE0002010) -- CPU_WriteMem(4 bytes @ 0xE0002014) -- CPU_WriteMem(4 bytes @ 0xE0002018) -- CPU_WriteMem(4 bytes @ 0xE000201C) (0013ms, 0635ms total)
T3C0C 000:941 JLINK_IsHalted() -- CPU_ReadMem(2 bytes @ 0x20000000)  returns TRUE (0008ms, 0643ms total)
T3C0C 000:949 JLINK_ReadReg(R15)  returns 0x20000000 (0000ms, 0635ms total)
T3C0C 000:949 JLINK_ClrBPEx(BPHandle = 0x00000001)  returns 0x00 (0000ms, 0635ms total)
T3C0C 000:949 JLINK_ReadReg(R0)  returns 0x00000000 (0000ms, 0635ms total)
T3C0C 000:950 JLINK_WriteReg(R0, 0x08000000)  returns 0x00 (0000ms, 0635ms total)
T3C0C 000:950 JLINK_WriteReg(R1, 0x007A1200)  returns 0x00 (0000ms, 0635ms total)
T3C0C 000:950 JLINK_WriteReg(R2, 0x00000001)  returns 0x00 (0000ms, 0635ms total)
T3C0C 000:950 JLINK_WriteReg(R3, 0x00000000)  returns 0x00 (0000ms, 0635ms total)
T3C0C 000:950 JLINK_WriteReg(R4, 0x00000000)  returns 0x00 (0000ms, 0635ms total)
T3C0C 000:950 JLINK_WriteReg(R5, 0x00000000)  returns 0x00 (0000ms, 0635ms total)
T3C0C 000:951 JLINK_WriteReg(R6, 0x00000000)  returns 0x00 (0000ms, 0636ms total)
T3C0C 000:951 JLINK_WriteReg(R7, 0x00000000)  returns 0x00 (0000ms, 0636ms total)
T3C0C 000:951 JLINK_WriteReg(R8, 0x00000000)  returns 0x00 (0000ms, 0636ms total)
T3C0C 000:951 JLINK_WriteReg(R9, 0x20000160)  returns 0x00 (0000ms, 0636ms total)
T3C0C 000:951 JLINK_WriteReg(R10, 0x00000000)  returns 0x00 (0000ms, 0636ms total)
T3C0C 000:951 JLINK_WriteReg(R11, 0x00000000)  returns 0x00 (0000ms, 0636ms total)
T3C0C 000:951 JLINK_WriteReg(R12, 0x00000000)  returns 0x00 (0000ms, 0636ms total)
T3C0C 000:951 JLINK_WriteReg(R13, 0x20000800)  returns 0x00 (0000ms, 0636ms total)
T3C0C 000:951 JLINK_WriteReg(R14, 0x20000001)  returns 0x00 (0000ms, 0636ms total)
T3C0C 000:951 JLINK_WriteReg(R15, 0x2000007C)  returns 0x00 (0000ms, 0636ms total)
T3C0C 000:951 JLINK_WriteReg(XPSR, 0x01000000)  returns 0x00 (0000ms, 0636ms total)
T3C0C 000:951 JLINK_WriteReg(MSP, 0x20000800)  returns 0x00 (0000ms, 0636ms total)
T3C0C 000:952 JLINK_WriteReg(PSP, 0x20000800)  returns 0x00 (0000ms, 0637ms total)
T3C0C 000:952 JLINK_WriteReg(CFBP, 0x00000000)  returns 0x00 (0000ms, 0637ms total)
T3C0C 000:952 JLINK_SetBPEx(Addr = 0x20000000, Type = 0xFFFFFFF2)  returns 0x00000002 (0000ms, 0637ms total)
T3C0C 000:952 JLINK_Go() (0003ms, 0640ms total)
T3C0C 000:955 JLINK_IsHalted()  returns FALSE (0001ms, 0641ms total)
T3C0C 001:167 JLINK_IsHalted() -- CPU_ReadMem(2 bytes @ 0x20000000)  returns TRUE (0009ms, 0649ms total)
T3C0C 001:176 JLINK_ReadReg(R15)  returns 0x20000000 (0000ms, 0640ms total)
T3C0C 001:176 JLINK_ClrBPEx(BPHandle = 0x00000002)  returns 0x00 (0000ms, 0640ms total)
T3C0C 001:176 JLINK_ReadReg(R0)  returns 0x00000000 (0000ms, 0640ms total)
T3C0C 001:231 JLINK_WriteReg(R0, 0x00000001)  returns 0x00 (0000ms, 0640ms total)
T3C0C 001:231 JLINK_WriteReg(R1, 0x007A1200)  returns 0x00 (0000ms, 0640ms total)
T3C0C 001:231 JLINK_WriteReg(R2, 0x00000001)  returns 0x00 (0000ms, 0640ms total)
T3C0C 001:231 JLINK_WriteReg(R3, 0x00000000)  returns 0x00 (0000ms, 0640ms total)
T3C0C 001:231 JLINK_WriteReg(R4, 0x00000000)  returns 0x00 (0000ms, 0640ms total)
T3C0C 001:231 JLINK_WriteReg(R5, 0x00000000)  returns 0x00 (0000ms, 0640ms total)
T3C0C 001:231 JLINK_WriteReg(R6, 0x00000000)  returns 0x00 (0000ms, 0640ms total)
T3C0C 001:231 JLINK_WriteReg(R7, 0x00000000)  returns 0x00 (0000ms, 0640ms total)
T3C0C 001:231 JLINK_WriteReg(R8, 0x00000000)  returns 0x00 (0000ms, 0640ms total)
T3C0C 001:231 JLINK_WriteReg(R9, 0x20000160)  returns 0x00 (0000ms, 0640ms total)
T3C0C 001:231 JLINK_WriteReg(R10, 0x00000000)  returns 0x00 (0000ms, 0640ms total)
T3C0C 001:231 JLINK_WriteReg(R11, 0x00000000)  returns 0x00 (0000ms, 0640ms total)
T3C0C 001:231 JLINK_WriteReg(R12, 0x00000000)  returns 0x00 (0000ms, 0640ms total)
T3C0C 001:231 JLINK_WriteReg(R13, 0x20000800)  returns 0x00 (0000ms, 0640ms total)
T3C0C 001:231 JLINK_WriteReg(R14, 0x20000001)  returns 0x00 (0000ms, 0640ms total)
T3C0C 001:231 JLINK_WriteReg(R15, 0x2000006A)  returns 0x00 (0000ms, 0640ms total)
T3C0C 001:231 JLINK_WriteReg(XPSR, 0x01000000)  returns 0x00 (0000ms, 0640ms total)
T3C0C 001:232 JLINK_WriteReg(MSP, 0x20000800)  returns 0x00 (0000ms, 0641ms total)
T3C0C 001:232 JLINK_WriteReg(PSP, 0x20000800)  returns 0x00 (0000ms, 0641ms total)
T3C0C 001:232 JLINK_WriteReg(CFBP, 0x00000000)  returns 0x00 (0000ms, 0641ms total)
T3C0C 001:232 JLINK_SetBPEx(Addr = 0x20000000, Type = 0xFFFFFFF2)  returns 0x00000003 (0000ms, 0641ms total)
T3C0C 001:232 JLINK_Go() (0003ms, 0644ms total)
T3C0C 001:235 JLINK_IsHalted() -- CPU_ReadMem(2 bytes @ 0x20000000)  returns TRUE (0008ms, 0652ms total)
T3C0C 001:243 JLINK_ReadReg(R15)  returns 0x20000000 (0000ms, 0644ms total)
T3C0C 001:243 JLINK_ClrBPEx(BPHandle = 0x00000003)  returns 0x00 (0000ms, 0644ms total)
T3C0C 001:243 JLINK_ReadReg(R0)  returns 0x00000000 (0000ms, 0644ms total)
T3C0C 001:262 JLINK_WriteMem(0x20000000, 0x0164 Bytes, ...) -- Data:  00 BE 0A E0 0D 78 2D 06 68 40 08 24 40 00 00 D3 ... -- CPU_WriteMem(356 bytes @ 0x20000000)  returns 0x164 (0005ms, 0649ms total)
T3C0C 001:267 JLINK_WriteReg(R0, 0x08000000)  returns 0x00 (0000ms, 0649ms total)
T3C0C 001:267 JLINK_WriteReg(R1, 0x007A1200)  returns 0x00 (0000ms, 0649ms total)
T3C0C 001:267 JLINK_WriteReg(R2, 0x00000002)  returns 0x00 (0000ms, 0649ms total)
T3C0C 001:267 JLINK_WriteReg(R3, 0x00000000)  returns 0x00 (0000ms, 0649ms total)
T3C0C 001:267 JLINK_WriteReg(R4, 0x00000000)  returns 0x00 (0000ms, 0649ms total)
T3C0C 001:267 JLINK_WriteReg(R5, 0x00000000)  returns 0x00 (0000ms, 0649ms total)
T3C0C 001:267 JLINK_WriteReg(R6, 0x00000000)  returns 0x00 (0000ms, 0649ms total)
T3C0C 001:267 JLINK_WriteReg(R7, 0x00000000)  returns 0x00 (0000ms, 0649ms total)
T3C0C 001:267 JLINK_WriteReg(R8, 0x00000000)  returns 0x00 (0000ms, 0649ms total)
T3C0C 001:267 JLINK_WriteReg(R9, 0x20000160)  returns 0x00 (0000ms, 0649ms total)
T3C0C 001:267 JLINK_WriteReg(R10, 0x00000000)  returns 0x00 (0000ms, 0649ms total)
T3C0C 001:267 JLINK_WriteReg(R11, 0x00000000)  returns 0x00 (0000ms, 0649ms total)
T3C0C 001:267 JLINK_WriteReg(R12, 0x00000000)  returns 0x00 (0001ms, 0650ms total)
T3C0C 001:268 JLINK_WriteReg(R13, 0x20000800)  returns 0x00 (0000ms, 0650ms total)
T3C0C 001:268 JLINK_WriteReg(R14, 0x20000001)  returns 0x00 (0000ms, 0650ms total)
T3C0C 001:268 JLINK_WriteReg(R15, 0x20000038)  returns 0x00 (0000ms, 0650ms total)
T3C0C 001:268 JLINK_WriteReg(XPSR, 0x01000000)  returns 0x00 (0000ms, 0650ms total)
T3C0C 001:268 JLINK_WriteReg(MSP, 0x20000800)  returns 0x00 (0000ms, 0650ms total)
T3C0C 001:268 JLINK_WriteReg(PSP, 0x20000800)  returns 0x00 (0000ms, 0650ms total)
T3C0C 001:268 JLINK_WriteReg(CFBP, 0x00000000)  returns 0x00 (0000ms, 0650ms total)
T3C0C 001:268 JLINK_SetBPEx(Addr = 0x20000000, Type = 0xFFFFFFF2) -- CPU_ReadMem(2 bytes @ 0x20000000)  returns 0x00000004 (0002ms, 0652ms total)
T3C0C 001:270 JLINK_Go() -- CPU_WriteMem(2 bytes @ 0x20000000) (0004ms, 0656ms total)
T3C0C 001:274 JLINK_IsHalted() -- CPU_ReadMem(2 bytes @ 0x20000000)  returns TRUE (0008ms, 0664ms total)
T3C0C 001:282 JLINK_ReadReg(R15)  returns 0x20000000 (0000ms, 0656ms total)
T3C0C 001:282 JLINK_ClrBPEx(BPHandle = 0x00000004)  returns 0x00 (0000ms, 0656ms total)
T3C0C 001:282 JLINK_ReadReg(R0)  returns 0x00000000 (0000ms, 0656ms total)
T3C0C 001:283 JLINK_WriteMem(0x20000164, 0x0400 Bytes, ...) -- Data:  80 0C 00 20 45 01 00 08 39 18 00 08 3B 18 00 08 ... -- CPU_WriteMem(1024 bytes @ 0x20000164)  returns 0x400 (0008ms, 0664ms total)
T3C0C 001:291 JLINK_WriteReg(R0, 0x08000000)  returns 0x00 (0000ms, 0664ms total)
T3C0C 001:291 JLINK_WriteReg(R1, 0x00000400)  returns 0x00 (0000ms, 0664ms total)
T3C0C 001:291 JLINK_WriteReg(R2, 0x20000164)  returns 0x00 (0000ms, 0664ms total)
T3C0C 001:291 JLINK_WriteReg(R3, 0x00000000)  returns 0x00 (0000ms, 0664ms total)
T3C0C 001:291 JLINK_WriteReg(R4, 0x00000000)  returns 0x00 (0000ms, 0664ms total)
T3C0C 001:291 JLINK_WriteReg(R5, 0x00000000)  returns 0x00 (0000ms, 0664ms total)
T3C0C 001:291 JLINK_WriteReg(R6, 0x00000000)  returns 0x00 (0000ms, 0664ms total)
T3C0C 001:291 JLINK_WriteReg(R7, 0x00000000)  returns 0x00 (0000ms, 0664ms total)
T3C0C 001:291 JLINK_WriteReg(R8, 0x00000000)  returns 0x00 (0000ms, 0664ms total)
T3C0C 001:291 JLINK_WriteReg(R9, 0x20000160)  returns 0x00 (0000ms, 0664ms total)
T3C0C 001:291 JLINK_WriteReg(R10, 0x00000000)  returns 0x00 (0001ms, 0665ms total)
T3C0C 001:292 JLINK_WriteReg(R11, 0x00000000)  returns 0x00 (0000ms, 0665ms total)
T3C0C 001:292 JLINK_WriteReg(R12, 0x00000000)  returns 0x00 (0000ms, 0665ms total)
T3C0C 001:292 JLINK_WriteReg(R13, 0x20000800)  returns 0x00 (0000ms, 0665ms total)
T3C0C 001:292 JLINK_WriteReg(R14, 0x20000001)  returns 0x00 (0000ms, 0665ms total)
T3C0C 001:292 JLINK_WriteReg(R15, 0x200000F4)  returns 0x00 (0000ms, 0665ms total)
T3C0C 001:292 JLINK_WriteReg(XPSR, 0x01000000)  returns 0x00 (0000ms, 0665ms total)
T3C0C 001:292 JLINK_WriteReg(MSP, 0x20000800)  returns 0x00 (0000ms, 0665ms total)
T3C0C 001:292 JLINK_WriteReg(PSP, 0x20000800)  returns 0x00 (0000ms, 0665ms total)
T3C0C 001:292 JLINK_WriteReg(CFBP, 0x00000000)  returns 0x00 (0000ms, 0665ms total)
T3C0C 001:292 JLINK_SetBPEx(Addr = 0x20000000, Type = 0xFFFFFFF2)  returns 0x00000005 (0000ms, 0665ms total)
T3C0C 001:292 JLINK_Go() (0003ms, 0668ms total)
T3C0C 001:295 JLINK_IsHalted()  returns FALSE (0002ms, 0670ms total)
T3C0C 001:357 JLINK_IsHalted() -- CPU_ReadMem(2 bytes @ 0x20000000)  returns TRUE (0007ms, 0675ms total)
T3C0C 001:364 JLINK_ReadReg(R15)  returns 0x20000000 (0000ms, 0668ms total)
T3C0C 001:364 JLINK_ClrBPEx(BPHandle = 0x00000005)  returns 0x00 (0000ms, 0668ms total)
T3C0C 001:364 JLINK_ReadReg(R0)  returns 0x00000000 (0001ms, 0669ms total)
T3C0C 001:367 JLINK_WriteMem(0x20000164, 0x0400 Bytes, ...) -- Data:  21 F0 04 01 4F F0 E0 22 11 61 70 47 00 00 FA 05 ... -- CPU_WriteMem(1024 bytes @ 0x20000164)  returns 0x400 (0007ms, 0676ms total)
T3C0C 001:374 JLINK_WriteReg(R0, 0x08000400)  returns 0x00 (0001ms, 0677ms total)
T3C0C 001:375 JLINK_WriteReg(R1, 0x00000400)  returns 0x00 (0000ms, 0677ms total)
T3C0C 001:375 JLINK_WriteReg(R2, 0x20000164)  returns 0x00 (0000ms, 0677ms total)
T3C0C 001:375 JLINK_WriteReg(R3, 0x00000000)  returns 0x00 (0000ms, 0677ms total)
T3C0C 001:375 JLINK_WriteReg(R4, 0x00000000)  returns 0x00 (0000ms, 0677ms total)
T3C0C 001:375 JLINK_WriteReg(R5, 0x00000000)  returns 0x00 (0000ms, 0677ms total)
T3C0C 001:375 JLINK_WriteReg(R6, 0x00000000)  returns 0x00 (0000ms, 0677ms total)
T3C0C 001:375 JLINK_WriteReg(R7, 0x00000000)  returns 0x00 (0000ms, 0677ms total)
T3C0C 001:375 JLINK_WriteReg(R8, 0x00000000)  returns 0x00 (0000ms, 0677ms total)
T3C0C 001:375 JLINK_WriteReg(R9, 0x20000160)  returns 0x00 (0000ms, 0677ms total)
T3C0C 001:375 JLINK_WriteReg(R10, 0x00000000)  returns 0x00 (0000ms, 0677ms total)
T3C0C 001:375 JLINK_WriteReg(R11, 0x00000000)  returns 0x00 (0000ms, 0677ms total)
T3C0C 001:375 JLINK_WriteReg(R12, 0x00000000)  returns 0x00 (0000ms, 0677ms total)
T3C0C 001:376 JLINK_WriteReg(R13, 0x20000800)  returns 0x00 (0000ms, 0677ms total)
T3C0C 001:376 JLINK_WriteReg(R14, 0x20000001)  returns 0x00 (0000ms, 0677ms total)
T3C0C 001:376 JLINK_WriteReg(R15, 0x200000F4)  returns 0x00 (0000ms, 0677ms total)
T3C0C 001:376 JLINK_WriteReg(XPSR, 0x01000000)  returns 0x00 (0000ms, 0677ms total)
T3C0C 001:376 JLINK_WriteReg(MSP, 0x20000800)  returns 0x00 (0000ms, 0677ms total)
T3C0C 001:376 JLINK_WriteReg(PSP, 0x20000800)  returns 0x00 (0000ms, 0677ms total)
T3C0C 001:376 JLINK_WriteReg(CFBP, 0x00000000)  returns 0x00 (0000ms, 0677ms total)
T3C0C 001:376 JLINK_SetBPEx(Addr = 0x20000000, Type = 0xFFFFFFF2)  returns 0x00000006 (0000ms, 0677ms total)
T3C0C 001:376 JLINK_Go() (0003ms, 0680ms total)
T3C0C 001:379 JLINK_IsHalted()  returns FALSE (0002ms, 0682ms total)
T3C0C 001:467 JLINK_IsHalted() -- CPU_ReadMem(2 bytes @ 0x20000000)  returns TRUE (0007ms, 0687ms total)
T3C0C 001:474 JLINK_ReadReg(R15)  returns 0x20000000 (0000ms, 0680ms total)
T3C0C 001:474 JLINK_ClrBPEx(BPHandle = 0x00000006)  returns 0x00 (0000ms, 0680ms total)
T3C0C 001:474 JLINK_ReadReg(R0)  returns 0x00000000 (0000ms, 0680ms total)
T3C0C 001:476 JLINK_WriteMem(0x20000164, 0x0400 Bytes, ...) -- Data:  70 61 22 B1 46 0D 36 01 03 FA 06 F6 31 43 00 F0 ... -- CPU_WriteMem(1024 bytes @ 0x20000164)  returns 0x400 (0007ms, 0687ms total)
T3C0C 001:483 JLINK_WriteReg(R0, 0x08000800)  returns 0x00 (0000ms, 0687ms total)
T3C0C 001:483 JLINK_WriteReg(R1, 0x00000400)  returns 0x00 (0000ms, 0687ms total)
T3C0C 001:483 JLINK_WriteReg(R2, 0x20000164)  returns 0x00 (0000ms, 0687ms total)
T3C0C 001:483 JLINK_WriteReg(R3, 0x00000000)  returns 0x00 (0000ms, 0687ms total)
T3C0C 001:483 JLINK_WriteReg(R4, 0x00000000)  returns 0x00 (0001ms, 0688ms total)
T3C0C 001:484 JLINK_WriteReg(R5, 0x00000000)  returns 0x00 (0000ms, 0688ms total)
T3C0C 001:484 JLINK_WriteReg(R6, 0x00000000)  returns 0x00 (0000ms, 0688ms total)
T3C0C 001:484 JLINK_WriteReg(R7, 0x00000000)  returns 0x00 (0000ms, 0688ms total)
T3C0C 001:484 JLINK_WriteReg(R8, 0x00000000)  returns 0x00 (0000ms, 0688ms total)
T3C0C 001:484 JLINK_WriteReg(R9, 0x20000160)  returns 0x00 (0000ms, 0688ms total)
T3C0C 001:484 JLINK_WriteReg(R10, 0x00000000)  returns 0x00 (0000ms, 0688ms total)
T3C0C 001:484 JLINK_WriteReg(R11, 0x00000000)  returns 0x00 (0000ms, 0688ms total)
T3C0C 001:484 JLINK_WriteReg(R12, 0x00000000)  returns 0x00 (0000ms, 0688ms total)
T3C0C 001:484 JLINK_WriteReg(R13, 0x20000800)  returns 0x00 (0000ms, 0688ms total)
T3C0C 001:484 JLINK_WriteReg(R14, 0x20000001)  returns 0x00 (0000ms, 0688ms total)
T3C0C 001:484 JLINK_WriteReg(R15, 0x200000F4)  returns 0x00 (0000ms, 0688ms total)
T3C0C 001:484 JLINK_WriteReg(XPSR, 0x01000000)  returns 0x00 (0000ms, 0688ms total)
T3C0C 001:484 JLINK_WriteReg(MSP, 0x20000800)  returns 0x00 (0000ms, 0688ms total)
T3C0C 001:484 JLINK_WriteReg(PSP, 0x20000800)  returns 0x00 (0000ms, 0688ms total)
T3C0C 001:484 JLINK_WriteReg(CFBP, 0x00000000)  returns 0x00 (0000ms, 0688ms total)
T3C0C 001:484 JLINK_SetBPEx(Addr = 0x20000000, Type = 0xFFFFFFF2)  returns 0x00000007 (0001ms, 0689ms total)
T3C0C 001:485 JLINK_Go() (0003ms, 0692ms total)
T3C0C 001:488 JLINK_IsHalted()  returns FALSE (0002ms, 0694ms total)
T3C0C 001:491 JLINK_IsHalted()  returns FALSE (0001ms, 0693ms total)
T3C0C 001:494 JLINK_IsHalted()  returns FALSE (0001ms, 0693ms total)
T3C0C 001:497 JLINK_IsHalted()  returns FALSE (0001ms, 0693ms total)
T3C0C 001:499 JLINK_IsHalted()  returns FALSE (0002ms, 0694ms total)
T3C0C 001:503 JLINK_IsHalted()  returns FALSE (0001ms, 0693ms total)
T3C0C 001:567 JLINK_IsHalted() -- CPU_ReadMem(2 bytes @ 0x20000000)  returns TRUE (0008ms, 0700ms total)
T3C0C 001:575 JLINK_ReadReg(R15)  returns 0x20000000 (0000ms, 0692ms total)
T3C0C 001:575 JLINK_ClrBPEx(BPHandle = 0x00000007)  returns 0x00 (0000ms, 0692ms total)
T3C0C 001:575 JLINK_ReadReg(R0)  returns 0x00000000 (0000ms, 0692ms total)
T3C0C 001:577 JLINK_WriteMem(0x20000164, 0x0400 Bytes, ...) -- Data:  8B 8A 0A 8B 12 04 43 EA 02 04 24 F0 7F 40 10 BD ... -- CPU_WriteMem(1024 bytes @ 0x20000164)  returns 0x400 (0008ms, 0700ms total)
T3C0C 001:585 JLINK_WriteReg(R0, 0x08000C00)  returns 0x00 (0000ms, 0700ms total)
T3C0C 001:585 JLINK_WriteReg(R1, 0x00000400)  returns 0x00 (0000ms, 0700ms total)
T3C0C 001:585 JLINK_WriteReg(R2, 0x20000164)  returns 0x00 (0000ms, 0700ms total)
T3C0C 001:585 JLINK_WriteReg(R3, 0x00000000)  returns 0x00 (0000ms, 0700ms total)
T3C0C 001:585 JLINK_WriteReg(R4, 0x00000000)  returns 0x00 (0000ms, 0700ms total)
T3C0C 001:585 JLINK_WriteReg(R5, 0x00000000)  returns 0x00 (0000ms, 0700ms total)
T3C0C 001:585 JLINK_WriteReg(R6, 0x00000000)  returns 0x00 (0000ms, 0700ms total)
T3C0C 001:585 JLINK_WriteReg(R7, 0x00000000)  returns 0x00 (0000ms, 0700ms total)
T3C0C 001:585 JLINK_WriteReg(R8, 0x00000000)  returns 0x00 (0000ms, 0700ms total)
T3C0C 001:585 JLINK_WriteReg(R9, 0x20000160)  returns 0x00 (0000ms, 0700ms total)
T3C0C 001:585 JLINK_WriteReg(R10, 0x00000000)  returns 0x00 (0000ms, 0700ms total)
T3C0C 001:585 JLINK_WriteReg(R11, 0x00000000)  returns 0x00 (0000ms, 0700ms total)
T3C0C 001:585 JLINK_WriteReg(R12, 0x00000000)  returns 0x00 (0000ms, 0700ms total)
T3C0C 001:585 JLINK_WriteReg(R13, 0x20000800)  returns 0x00 (0000ms, 0700ms total)
T3C0C 001:585 JLINK_WriteReg(R14, 0x20000001)  returns 0x00 (0000ms, 0700ms total)
T3C0C 001:585 JLINK_WriteReg(R15, 0x200000F4)  returns 0x00 (0000ms, 0700ms total)
T3C0C 001:585 JLINK_WriteReg(XPSR, 0x01000000)  returns 0x00 (0000ms, 0700ms total)
T3C0C 001:585 JLINK_WriteReg(MSP, 0x20000800)  returns 0x00 (0001ms, 0701ms total)
T3C0C 001:586 JLINK_WriteReg(PSP, 0x20000800)  returns 0x00 (0000ms, 0701ms total)
T3C0C 001:586 JLINK_WriteReg(CFBP, 0x00000000)  returns 0x00 (0000ms, 0701ms total)
T3C0C 001:586 JLINK_SetBPEx(Addr = 0x20000000, Type = 0xFFFFFFF2)  returns 0x00000008 (0000ms, 0701ms total)
T3C0C 001:586 JLINK_Go() (0003ms, 0704ms total)
T3C0C 001:589 JLINK_IsHalted()  returns FALSE (0002ms, 0706ms total)
T3C0C 001:593 JLINK_IsHalted()  returns FALSE (0001ms, 0705ms total)
T3C0C 001:596 JLINK_IsHalted()  returns FALSE (0001ms, 0705ms total)
T3C0C 001:599 JLINK_IsHalted()  returns FALSE (0001ms, 0705ms total)
T3C0C 001:601 JLINK_IsHalted()  returns FALSE (0001ms, 0705ms total)
T3C0C 001:604 JLINK_IsHalted()  returns FALSE (0001ms, 0705ms total)
T3C0C 001:607 JLINK_IsHalted()  returns FALSE (0001ms, 0705ms total)
T3C0C 001:610 JLINK_IsHalted()  returns FALSE (0001ms, 0705ms total)
T3C0C 001:612 JLINK_IsHalted()  returns FALSE (0001ms, 0705ms total)
T3C0C 001:705 JLINK_IsHalted() -- CPU_ReadMem(2 bytes @ 0x20000000)  returns TRUE (0007ms, 0711ms total)
T3C0C 001:712 JLINK_ReadReg(R15)  returns 0x20000000 (0001ms, 0705ms total)
T3C0C 001:713 JLINK_ClrBPEx(BPHandle = 0x00000008)  returns 0x00 (0000ms, 0705ms total)
T3C0C 001:713 JLINK_ReadReg(R0)  returns 0x00000000 (0000ms, 0705ms total)
T3C0C 001:715 JLINK_WriteMem(0x20000164, 0x0400 Bytes, ...) -- Data:  01 D0 01 20 00 E0 00 20 70 47 01 49 88 72 70 47 ... -- CPU_WriteMem(1024 bytes @ 0x20000164)  returns 0x400 (0007ms, 0712ms total)
T3C0C 001:722 JLINK_WriteReg(R0, 0x08001000)  returns 0x00 (0000ms, 0712ms total)
T3C0C 001:722 JLINK_WriteReg(R1, 0x00000400)  returns 0x00 (0000ms, 0712ms total)
T3C0C 001:722 JLINK_WriteReg(R2, 0x20000164)  returns 0x00 (0001ms, 0713ms total)
T3C0C 001:723 JLINK_WriteReg(R3, 0x00000000)  returns 0x00 (0000ms, 0713ms total)
T3C0C 001:723 JLINK_WriteReg(R4, 0x00000000)  returns 0x00 (0000ms, 0713ms total)
T3C0C 001:723 JLINK_WriteReg(R5, 0x00000000)  returns 0x00 (0000ms, 0713ms total)
T3C0C 001:723 JLINK_WriteReg(R6, 0x00000000)  returns 0x00 (0000ms, 0713ms total)
T3C0C 001:723 JLINK_WriteReg(R7, 0x00000000)  returns 0x00 (0000ms, 0713ms total)
T3C0C 001:723 JLINK_WriteReg(R8, 0x00000000)  returns 0x00 (0000ms, 0713ms total)
T3C0C 001:723 JLINK_WriteReg(R9, 0x20000160)  returns 0x00 (0000ms, 0713ms total)
T3C0C 001:723 JLINK_WriteReg(R10, 0x00000000)  returns 0x00 (0000ms, 0713ms total)
T3C0C 001:723 JLINK_WriteReg(R11, 0x00000000)  returns 0x00 (0000ms, 0713ms total)
T3C0C 001:723 JLINK_WriteReg(R12, 0x00000000)  returns 0x00 (0000ms, 0713ms total)
T3C0C 001:723 JLINK_WriteReg(R13, 0x20000800)  returns 0x00 (0000ms, 0713ms total)
T3C0C 001:723 JLINK_WriteReg(R14, 0x20000001)  returns 0x00 (0000ms, 0713ms total)
T3C0C 001:723 JLINK_WriteReg(R15, 0x200000F4)  returns 0x00 (0001ms, 0714ms total)
T3C0C 001:724 JLINK_WriteReg(XPSR, 0x01000000)  returns 0x00 (0000ms, 0714ms total)
T3C0C 001:724 JLINK_WriteReg(MSP, 0x20000800)  returns 0x00 (0000ms, 0714ms total)
T3C0C 001:724 JLINK_WriteReg(PSP, 0x20000800)  returns 0x00 (0000ms, 0714ms total)
T3C0C 001:724 JLINK_WriteReg(CFBP, 0x00000000)  returns 0x00 (0000ms, 0714ms total)
T3C0C 001:724 JLINK_SetBPEx(Addr = 0x20000000, Type = 0xFFFFFFF2)  returns 0x00000009 (0000ms, 0714ms total)
T3C0C 001:724 JLINK_Go() (0003ms, 0717ms total)
T3C0C 001:727 JLINK_IsHalted()  returns FALSE (0002ms, 0719ms total)
T3C0C 001:789 JLINK_IsHalted() -- CPU_ReadMem(2 bytes @ 0x20000000)  returns TRUE (0008ms, 0725ms total)
T3C0C 001:797 JLINK_ReadReg(R15)  returns 0x20000000 (0000ms, 0717ms total)
T3C0C 001:797 JLINK_ClrBPEx(BPHandle = 0x00000009)  returns 0x00 (0000ms, 0717ms total)
T3C0C 001:797 JLINK_ReadReg(R0)  returns 0x00000000 (0000ms, 0717ms total)
T3C0C 001:800 JLINK_WriteMem(0x20000164, 0x0400 Bytes, ...) -- Data:  B0 88 31 89 08 43 71 89 08 43 04 43 AC 81 AC 8A ... -- CPU_WriteMem(1024 bytes @ 0x20000164)  returns 0x400 (0008ms, 0725ms total)
T3C0C 001:808 JLINK_WriteReg(R0, 0x08001400)  returns 0x00 (0000ms, 0725ms total)
T3C0C 001:808 JLINK_WriteReg(R1, 0x00000400)  returns 0x00 (0000ms, 0725ms total)
T3C0C 001:808 JLINK_WriteReg(R2, 0x20000164)  returns 0x00 (0000ms, 0725ms total)
T3C0C 001:808 JLINK_WriteReg(R3, 0x00000000)  returns 0x00 (0000ms, 0725ms total)
T3C0C 001:808 JLINK_WriteReg(R4, 0x00000000)  returns 0x00 (0001ms, 0726ms total)
T3C0C 001:809 JLINK_WriteReg(R5, 0x00000000)  returns 0x00 (0000ms, 0726ms total)
T3C0C 001:809 JLINK_WriteReg(R6, 0x00000000)  returns 0x00 (0000ms, 0726ms total)
T3C0C 001:809 JLINK_WriteReg(R7, 0x00000000)  returns 0x00 (0000ms, 0726ms total)
T3C0C 001:809 JLINK_WriteReg(R8, 0x00000000)  returns 0x00 (0000ms, 0726ms total)
T3C0C 001:809 JLINK_WriteReg(R9, 0x20000160)  returns 0x00 (0000ms, 0726ms total)
T3C0C 001:809 JLINK_WriteReg(R10, 0x00000000)  returns 0x00 (0000ms, 0726ms total)
T3C0C 001:809 JLINK_WriteReg(R11, 0x00000000)  returns 0x00 (0000ms, 0726ms total)
T3C0C 001:809 JLINK_WriteReg(R12, 0x00000000)  returns 0x00 (0000ms, 0726ms total)
T3C0C 001:809 JLINK_WriteReg(R13, 0x20000800)  returns 0x00 (0001ms, 0727ms total)
T3C0C 001:810 JLINK_WriteReg(R14, 0x20000001)  returns 0x00 (0000ms, 0727ms total)
T3C0C 001:810 JLINK_WriteReg(R15, 0x200000F4)  returns 0x00 (0000ms, 0727ms total)
T3C0C 001:810 JLINK_WriteReg(XPSR, 0x01000000)  returns 0x00 (0000ms, 0727ms total)
T3C0C 001:810 JLINK_WriteReg(MSP, 0x20000800)  returns 0x00 (0000ms, 0727ms total)
T3C0C 001:810 JLINK_WriteReg(PSP, 0x20000800)  returns 0x00 (0000ms, 0727ms total)
T3C0C 001:810 JLINK_WriteReg(CFBP, 0x00000000)  returns 0x00 (0000ms, 0727ms total)
T3C0C 001:810 JLINK_SetBPEx(Addr = 0x20000000, Type = 0xFFFFFFF2)  returns 0x0000000A (0000ms, 0727ms total)
T3C0C 001:810 JLINK_Go() (0004ms, 0731ms total)
T3C0C 001:814 JLINK_IsHalted()  returns FALSE (0001ms, 0732ms total)
T3C0C 001:817 JLINK_IsHalted()  returns FALSE (0001ms, 0732ms total)
T3C0C 001:819 JLINK_IsHalted()  returns FALSE (0001ms, 0732ms total)
T3C0C 001:822 JLINK_IsHalted()  returns FALSE (0001ms, 0732ms total)
T3C0C 001:825 JLINK_IsHalted()  returns FALSE (0002ms, 0733ms total)
T3C0C 001:828 JLINK_IsHalted()  returns FALSE (0001ms, 0732ms total)
T3C0C 001:907 JLINK_IsHalted() -- CPU_ReadMem(2 bytes @ 0x20000000)  returns TRUE (0008ms, 0739ms total)
T3C0C 001:915 JLINK_ReadReg(R15)  returns 0x20000000 (0000ms, 0731ms total)
T3C0C 001:915 JLINK_ClrBPEx(BPHandle = 0x0000000A)  returns 0x00 (0000ms, 0731ms total)
T3C0C 001:915 JLINK_ReadReg(R0)  returns 0x00000000 (0000ms, 0731ms total)
T3C0C 001:917 JLINK_WriteMem(0x20000164, 0x0400 Bytes, ...) -- Data:  00 F0 9B F9 06 49 08 70 06 A0 02 F0 93 FC 03 E0 ... -- CPU_WriteMem(1024 bytes @ 0x20000164)  returns 0x400 (0007ms, 0738ms total)
T3C0C 001:924 JLINK_WriteReg(R0, 0x08001800)  returns 0x00 (0001ms, 0739ms total)
T3C0C 001:925 JLINK_WriteReg(R1, 0x00000400)  returns 0x00 (0000ms, 0739ms total)
T3C0C 001:925 JLINK_WriteReg(R2, 0x20000164)  returns 0x00 (0000ms, 0739ms total)
T3C0C 001:925 JLINK_WriteReg(R3, 0x00000000)  returns 0x00 (0000ms, 0739ms total)
T3C0C 001:925 JLINK_WriteReg(R4, 0x00000000)  returns 0x00 (0000ms, 0739ms total)
T3C0C 001:925 JLINK_WriteReg(R5, 0x00000000)  returns 0x00 (0000ms, 0739ms total)
T3C0C 001:925 JLINK_WriteReg(R6, 0x00000000)  returns 0x00 (0000ms, 0739ms total)
T3C0C 001:925 JLINK_WriteReg(R7, 0x00000000)  returns 0x00 (0000ms, 0739ms total)
T3C0C 001:925 JLINK_WriteReg(R8, 0x00000000)  returns 0x00 (0000ms, 0739ms total)
T3C0C 001:925 JLINK_WriteReg(R9, 0x20000160)  returns 0x00 (0000ms, 0739ms total)
T3C0C 001:925 JLINK_WriteReg(R10, 0x00000000)  returns 0x00 (0000ms, 0739ms total)
T3C0C 001:925 JLINK_WriteReg(R11, 0x00000000)  returns 0x00 (0000ms, 0739ms total)
T3C0C 001:925 JLINK_WriteReg(R12, 0x00000000)  returns 0x00 (0001ms, 0740ms total)
T3C0C 001:926 JLINK_WriteReg(R13, 0x20000800)  returns 0x00 (0000ms, 0740ms total)
T3C0C 001:926 JLINK_WriteReg(R14, 0x20000001)  returns 0x00 (0000ms, 0740ms total)
T3C0C 001:926 JLINK_WriteReg(R15, 0x200000F4)  returns 0x00 (0000ms, 0740ms total)
T3C0C 001:926 JLINK_WriteReg(XPSR, 0x01000000)  returns 0x00 (0000ms, 0740ms total)
T3C0C 001:926 JLINK_WriteReg(MSP, 0x20000800)  returns 0x00 (0000ms, 0740ms total)
T3C0C 001:926 JLINK_WriteReg(PSP, 0x20000800)  returns 0x00 (0000ms, 0740ms total)
T3C0C 001:926 JLINK_WriteReg(CFBP, 0x00000000)  returns 0x00 (0000ms, 0740ms total)
T3C0C 001:926 JLINK_SetBPEx(Addr = 0x20000000, Type = 0xFFFFFFF2)  returns 0x0000000B (0000ms, 0740ms total)
T3C0C 001:926 JLINK_Go() (0004ms, 0744ms total)
T3C0C 001:930 JLINK_IsHalted()  returns FALSE (0001ms, 0745ms total)
T3C0C 001:933 JLINK_IsHalted()  returns FALSE (0001ms, 0745ms total)
T3C0C 001:936 JLINK_IsHalted()  returns FALSE (0001ms, 0745ms total)
T3C0C 001:938 JLINK_IsHalted()  returns FALSE (0001ms, 0745ms total)
T3C0C 001:942 JLINK_IsHalted()  returns FALSE (0001ms, 0745ms total)
T3C0C 002:020 JLINK_IsHalted() -- CPU_ReadMem(2 bytes @ 0x20000000)  returns TRUE (0007ms, 0751ms total)
T3C0C 002:028 JLINK_ReadReg(R15)  returns 0x20000000 (0000ms, 0744ms total)
T3C0C 002:028 JLINK_ClrBPEx(BPHandle = 0x0000000B)  returns 0x00 (0000ms, 0744ms total)
T3C0C 002:028 JLINK_ReadReg(R0)  returns 0x00000000 (0000ms, 0744ms total)
T3C0C 002:030 JLINK_WriteMem(0x20000164, 0x0400 Bytes, ...) -- Data:  07 20 FF F7 E4 FE 04 46 21 46 27 20 FF F7 C7 FE ... -- CPU_WriteMem(1024 bytes @ 0x20000164)  returns 0x400 (0007ms, 0751ms total)
T3C0C 002:037 JLINK_WriteReg(R0, 0x08001C00)  returns 0x00 (0000ms, 0751ms total)
T3C0C 002:037 JLINK_WriteReg(R1, 0x00000400)  returns 0x00 (0000ms, 0751ms total)
T3C0C 002:037 JLINK_WriteReg(R2, 0x20000164)  returns 0x00 (0000ms, 0751ms total)
T3C0C 002:037 JLINK_WriteReg(R3, 0x00000000)  returns 0x00 (0000ms, 0751ms total)
T3C0C 002:037 JLINK_WriteReg(R4, 0x00000000)  returns 0x00 (0001ms, 0752ms total)
T3C0C 002:038 JLINK_WriteReg(R5, 0x00000000)  returns 0x00 (0000ms, 0752ms total)
T3C0C 002:038 JLINK_WriteReg(R6, 0x00000000)  returns 0x00 (0000ms, 0752ms total)
T3C0C 002:038 JLINK_WriteReg(R7, 0x00000000)  returns 0x00 (0000ms, 0752ms total)
T3C0C 002:038 JLINK_WriteReg(R8, 0x00000000)  returns 0x00 (0000ms, 0752ms total)
T3C0C 002:038 JLINK_WriteReg(R9, 0x20000160)  returns 0x00 (0000ms, 0752ms total)
T3C0C 002:038 JLINK_WriteReg(R10, 0x00000000)  returns 0x00 (0000ms, 0752ms total)
T3C0C 002:038 JLINK_WriteReg(R11, 0x00000000)  returns 0x00 (0000ms, 0752ms total)
T3C0C 002:038 JLINK_WriteReg(R12, 0x00000000)  returns 0x00 (0000ms, 0752ms total)
T3C0C 002:038 JLINK_WriteReg(R13, 0x20000800)  returns 0x00 (0000ms, 0752ms total)
T3C0C 002:038 JLINK_WriteReg(R14, 0x20000001)  returns 0x00 (0000ms, 0752ms total)
T3C0C 002:038 JLINK_WriteReg(R15, 0x200000F4)  returns 0x00 (0000ms, 0752ms total)
T3C0C 002:038 JLINK_WriteReg(XPSR, 0x01000000)  returns 0x00 (0000ms, 0752ms total)
T3C0C 002:038 JLINK_WriteReg(MSP, 0x20000800)  returns 0x00 (0000ms, 0752ms total)
T3C0C 002:038 JLINK_WriteReg(PSP, 0x20000800)  returns 0x00 (0000ms, 0752ms total)
T3C0C 002:038 JLINK_WriteReg(CFBP, 0x00000000)  returns 0x00 (0000ms, 0752ms total)
T3C0C 002:038 JLINK_SetBPEx(Addr = 0x20000000, Type = 0xFFFFFFF2)  returns 0x0000000C (0000ms, 0752ms total)
T3C0C 002:038 JLINK_Go() (0004ms, 0756ms total)
T3C0C 002:042 JLINK_IsHalted()  returns FALSE (0001ms, 0757ms total)
T3C0C 002:045 JLINK_IsHalted()  returns FALSE (0001ms, 0757ms total)
T3C0C 002:048 JLINK_IsHalted()  returns FALSE (0001ms, 0757ms total)
T3C0C 002:051 JLINK_IsHalted()  returns FALSE (0001ms, 0757ms total)
T3C0C 002:119 JLINK_IsHalted() -- CPU_ReadMem(2 bytes @ 0x20000000)  returns TRUE (0007ms, 0763ms total)
T3C0C 002:126 JLINK_ReadReg(R15)  returns 0x20000000 (0000ms, 0756ms total)
T3C0C 002:126 JLINK_ClrBPEx(BPHandle = 0x0000000C)  returns 0x00 (0000ms, 0756ms total)
T3C0C 002:126 JLINK_ReadReg(R0)  returns 0x00000000 (0001ms, 0757ms total)
T3C0C 002:129 JLINK_WriteMem(0x20000164, 0x0400 Bytes, ...) -- Data:  12 A8 01 F0 E7 F8 01 A8 00 F0 B2 FD DD E9 01 01 ... -- CPU_WriteMem(1024 bytes @ 0x20000164)  returns 0x400 (0007ms, 0764ms total)
T3C0C 002:136 JLINK_WriteReg(R0, 0x08002000)  returns 0x00 (0000ms, 0764ms total)
T3C0C 002:136 JLINK_WriteReg(R1, 0x00000400)  returns 0x00 (0000ms, 0764ms total)
T3C0C 002:136 JLINK_WriteReg(R2, 0x20000164)  returns 0x00 (0000ms, 0764ms total)
T3C0C 002:136 JLINK_WriteReg(R3, 0x00000000)  returns 0x00 (0000ms, 0764ms total)
T3C0C 002:136 JLINK_WriteReg(R4, 0x00000000)  returns 0x00 (0001ms, 0765ms total)
T3C0C 002:137 JLINK_WriteReg(R5, 0x00000000)  returns 0x00 (0000ms, 0765ms total)
T3C0C 002:137 JLINK_WriteReg(R6, 0x00000000)  returns 0x00 (0000ms, 0765ms total)
T3C0C 002:137 JLINK_WriteReg(R7, 0x00000000)  returns 0x00 (0000ms, 0765ms total)
T3C0C 002:137 JLINK_WriteReg(R8, 0x00000000)  returns 0x00 (0000ms, 0765ms total)
T3C0C 002:137 JLINK_WriteReg(R9, 0x20000160)  returns 0x00 (0000ms, 0765ms total)
T3C0C 002:137 JLINK_WriteReg(R10, 0x00000000)  returns 0x00 (0000ms, 0765ms total)
T3C0C 002:137 JLINK_WriteReg(R11, 0x00000000)  returns 0x00 (0000ms, 0765ms total)
T3C0C 002:137 JLINK_WriteReg(R12, 0x00000000)  returns 0x00 (0000ms, 0765ms total)
T3C0C 002:137 JLINK_WriteReg(R13, 0x20000800)  returns 0x00 (0000ms, 0765ms total)
T3C0C 002:137 JLINK_WriteReg(R14, 0x20000001)  returns 0x00 (0000ms, 0765ms total)
T3C0C 002:137 JLINK_WriteReg(R15, 0x200000F4)  returns 0x00 (0001ms, 0766ms total)
T3C0C 002:138 JLINK_WriteReg(XPSR, 0x01000000)  returns 0x00 (0000ms, 0766ms total)
T3C0C 002:138 JLINK_WriteReg(MSP, 0x20000800)  returns 0x00 (0000ms, 0766ms total)
T3C0C 002:138 JLINK_WriteReg(PSP, 0x20000800)  returns 0x00 (0000ms, 0766ms total)
T3C0C 002:138 JLINK_WriteReg(CFBP, 0x00000000)  returns 0x00 (0000ms, 0766ms total)
T3C0C 002:138 JLINK_SetBPEx(Addr = 0x20000000, Type = 0xFFFFFFF2)  returns 0x0000000D (0000ms, 0766ms total)
T3C0C 002:138 JLINK_Go() (0003ms, 0769ms total)
T3C0C 002:141 JLINK_IsHalted()  returns FALSE (0002ms, 0771ms total)
T3C0C 002:149 JLINK_IsHalted()  returns FALSE (0001ms, 0770ms total)
T3C0C 002:152 JLINK_IsHalted()  returns FALSE (0001ms, 0770ms total)
T3C0C 002:155 JLINK_IsHalted()  returns FALSE (0001ms, 0770ms total)
T3C0C 002:157 JLINK_IsHalted()  returns FALSE (0002ms, 0771ms total)
T3C0C 002:220 JLINK_IsHalted() -- CPU_ReadMem(2 bytes @ 0x20000000)  returns TRUE (0009ms, 0778ms total)
T3C0C 002:229 JLINK_ReadReg(R15)  returns 0x20000000 (0000ms, 0769ms total)
T3C0C 002:229 JLINK_ClrBPEx(BPHandle = 0x0000000D)  returns 0x00 (0000ms, 0769ms total)
T3C0C 002:229 JLINK_ReadReg(R0)  returns 0x00000000 (0000ms, 0769ms total)
T3C0C 002:231 JLINK_WriteMem(0x20000164, 0x0400 Bytes, ...) -- Data:  12 88 4A 43 4F F0 E0 23 5A 61 00 22 9A 61 1A 46 ... -- CPU_WriteMem(1024 bytes @ 0x20000164)  returns 0x400 (0007ms, 0776ms total)
T3C0C 002:238 JLINK_WriteReg(R0, 0x08002400)  returns 0x00 (0000ms, 0776ms total)
T3C0C 002:238 JLINK_WriteReg(R1, 0x00000400)  returns 0x00 (0001ms, 0777ms total)
T3C0C 002:239 JLINK_WriteReg(R2, 0x20000164)  returns 0x00 (0000ms, 0777ms total)
T3C0C 002:239 JLINK_WriteReg(R3, 0x00000000)  returns 0x00 (0000ms, 0777ms total)
T3C0C 002:239 JLINK_WriteReg(R4, 0x00000000)  returns 0x00 (0000ms, 0777ms total)
T3C0C 002:239 JLINK_WriteReg(R5, 0x00000000)  returns 0x00 (0000ms, 0777ms total)
T3C0C 002:239 JLINK_WriteReg(R6, 0x00000000)  returns 0x00 (0000ms, 0777ms total)
T3C0C 002:239 JLINK_WriteReg(R7, 0x00000000)  returns 0x00 (0000ms, 0777ms total)
T3C0C 002:239 JLINK_WriteReg(R8, 0x00000000)  returns 0x00 (0000ms, 0777ms total)
T3C0C 002:239 JLINK_WriteReg(R9, 0x20000160)  returns 0x00 (0000ms, 0777ms total)
T3C0C 002:239 JLINK_WriteReg(R10, 0x00000000)  returns 0x00 (0000ms, 0777ms total)
T3C0C 002:239 JLINK_WriteReg(R11, 0x00000000)  returns 0x00 (0000ms, 0777ms total)
T3C0C 002:239 JLINK_WriteReg(R12, 0x00000000)  returns 0x00 (0000ms, 0777ms total)
T3C0C 002:239 JLINK_WriteReg(R13, 0x20000800)  returns 0x00 (0000ms, 0777ms total)
T3C0C 002:240 JLINK_WriteReg(R14, 0x20000001)  returns 0x00 (0000ms, 0777ms total)
T3C0C 002:240 JLINK_WriteReg(R15, 0x200000F4)  returns 0x00 (0000ms, 0777ms total)
T3C0C 002:240 JLINK_WriteReg(XPSR, 0x01000000)  returns 0x00 (0000ms, 0777ms total)
T3C0C 002:240 JLINK_WriteReg(MSP, 0x20000800)  returns 0x00 (0000ms, 0777ms total)
T3C0C 002:240 JLINK_WriteReg(PSP, 0x20000800)  returns 0x00 (0000ms, 0777ms total)
T3C0C 002:240 JLINK_WriteReg(CFBP, 0x00000000)  returns 0x00 (0000ms, 0777ms total)
T3C0C 002:240 JLINK_SetBPEx(Addr = 0x20000000, Type = 0xFFFFFFF2)  returns 0x0000000E (0000ms, 0777ms total)
T3C0C 002:240 JLINK_Go() (0003ms, 0780ms total)
T3C0C 002:243 JLINK_IsHalted()  returns FALSE (0002ms, 0782ms total)
T3C0C 002:247 JLINK_IsHalted()  returns FALSE (0001ms, 0781ms total)
T3C0C 002:249 JLINK_IsHalted()  returns FALSE (0002ms, 0782ms total)
T3C0C 002:252 JLINK_IsHalted()  returns FALSE (0002ms, 0782ms total)
T3C0C 002:255 JLINK_IsHalted()  returns FALSE (0001ms, 0781ms total)
T3C0C 002:258 JLINK_IsHalted()  returns FALSE (0001ms, 0781ms total)
T3C0C 002:261 JLINK_IsHalted()  returns FALSE (0001ms, 0781ms total)
T3C0C 002:264 JLINK_IsHalted()  returns FALSE (0001ms, 0781ms total)
T3C0C 002:267 JLINK_IsHalted()  returns FALSE (0001ms, 0781ms total)
T3C0C 002:335 JLINK_IsHalted() -- CPU_ReadMem(2 bytes @ 0x20000000)  returns TRUE (0008ms, 0788ms total)
T3C0C 002:343 JLINK_ReadReg(R15)  returns 0x20000000 (0000ms, 0780ms total)
T3C0C 002:343 JLINK_ClrBPEx(BPHandle = 0x0000000E)  returns 0x00 (0000ms, 0780ms total)
T3C0C 002:343 JLINK_ReadReg(R0)  returns 0x00000000 (0000ms, 0780ms total)
T3C0C 002:345 JLINK_WriteMem(0x20000164, 0x0400 Bytes, ...) -- Data:  10 20 8D F8 03 00 03 20 8D F8 02 00 69 46 2F 48 ... -- CPU_WriteMem(1024 bytes @ 0x20000164)  returns 0x400 (0008ms, 0788ms total)
T3C0C 002:353 JLINK_WriteReg(R0, 0x08002800)  returns 0x00 (0000ms, 0788ms total)
T3C0C 002:353 JLINK_WriteReg(R1, 0x00000400)  returns 0x00 (0000ms, 0788ms total)
T3C0C 002:353 JLINK_WriteReg(R2, 0x20000164)  returns 0x00 (0000ms, 0788ms total)
T3C0C 002:353 JLINK_WriteReg(R3, 0x00000000)  returns 0x00 (0000ms, 0788ms total)
T3C0C 002:353 JLINK_WriteReg(R4, 0x00000000)  returns 0x00 (0000ms, 0788ms total)
T3C0C 002:353 JLINK_WriteReg(R5, 0x00000000)  returns 0x00 (0000ms, 0788ms total)
T3C0C 002:353 JLINK_WriteReg(R6, 0x00000000)  returns 0x00 (0000ms, 0788ms total)
T3C0C 002:353 JLINK_WriteReg(R7, 0x00000000)  returns 0x00 (0000ms, 0788ms total)
T3C0C 002:353 JLINK_WriteReg(R8, 0x00000000)  returns 0x00 (0001ms, 0789ms total)
T3C0C 002:354 JLINK_WriteReg(R9, 0x20000160)  returns 0x00 (0000ms, 0789ms total)
T3C0C 002:354 JLINK_WriteReg(R10, 0x00000000)  returns 0x00 (0000ms, 0789ms total)
T3C0C 002:354 JLINK_WriteReg(R11, 0x00000000)  returns 0x00 (0000ms, 0789ms total)
T3C0C 002:354 JLINK_WriteReg(R12, 0x00000000)  returns 0x00 (0000ms, 0789ms total)
T3C0C 002:354 JLINK_WriteReg(R13, 0x20000800)  returns 0x00 (0000ms, 0789ms total)
T3C0C 002:354 JLINK_WriteReg(R14, 0x20000001)  returns 0x00 (0000ms, 0789ms total)
T3C0C 002:354 JLINK_WriteReg(R15, 0x200000F4)  returns 0x00 (0000ms, 0789ms total)
T3C0C 002:354 JLINK_WriteReg(XPSR, 0x01000000)  returns 0x00 (0000ms, 0789ms total)
T3C0C 002:354 JLINK_WriteReg(MSP, 0x20000800)  returns 0x00 (0000ms, 0789ms total)
T3C0C 002:354 JLINK_WriteReg(PSP, 0x20000800)  returns 0x00 (0000ms, 0789ms total)
T3C0C 002:354 JLINK_WriteReg(CFBP, 0x00000000)  returns 0x00 (0000ms, 0789ms total)
T3C0C 002:354 JLINK_SetBPEx(Addr = 0x20000000, Type = 0xFFFFFFF2)  returns 0x0000000F (0000ms, 0789ms total)
T3C0C 002:354 JLINK_Go() (0003ms, 0792ms total)
T3C0C 002:358 JLINK_IsHalted()  returns FALSE (0001ms, 0794ms total)
T3C0C 002:360 JLINK_IsHalted()  returns FALSE (0001ms, 0794ms total)
T3C0C 002:435 JLINK_IsHalted() -- CPU_ReadMem(2 bytes @ 0x20000000)  returns TRUE (0008ms, 0801ms total)
T3C0C 002:443 JLINK_ReadReg(R15)  returns 0x20000000 (0000ms, 0793ms total)
T3C0C 002:443 JLINK_ClrBPEx(BPHandle = 0x0000000F)  returns 0x00 (0001ms, 0794ms total)
T3C0C 002:444 JLINK_ReadReg(R0)  returns 0x00000000 (0000ms, 0794ms total)
T3C0C 002:445 JLINK_WriteMem(0x20000164, 0x0400 Bytes, ...) -- Data:  FF F7 31 FF 04 46 20 46 E2 17 04 EB 12 72 12 11 ... -- CPU_WriteMem(1024 bytes @ 0x20000164)  returns 0x400 (0007ms, 0801ms total)
T3C0C 002:453 JLINK_WriteReg(R0, 0x08002C00)  returns 0x00 (0000ms, 0802ms total)
T3C0C 002:453 JLINK_WriteReg(R1, 0x00000400)  returns 0x00 (0000ms, 0802ms total)
T3C0C 002:453 JLINK_WriteReg(R2, 0x20000164)  returns 0x00 (0000ms, 0802ms total)
T3C0C 002:453 JLINK_WriteReg(R3, 0x00000000)  returns 0x00 (0000ms, 0802ms total)
T3C0C 002:453 JLINK_WriteReg(R4, 0x00000000)  returns 0x00 (0000ms, 0802ms total)
T3C0C 002:453 JLINK_WriteReg(R5, 0x00000000)  returns 0x00 (0000ms, 0802ms total)
T3C0C 002:453 JLINK_WriteReg(R6, 0x00000000)  returns 0x00 (0000ms, 0802ms total)
T3C0C 002:453 JLINK_WriteReg(R7, 0x00000000)  returns 0x00 (0000ms, 0802ms total)
T3C0C 002:453 JLINK_WriteReg(R8, 0x00000000)  returns 0x00 (0000ms, 0802ms total)
T3C0C 002:453 JLINK_WriteReg(R9, 0x20000160)  returns 0x00 (0000ms, 0802ms total)
T3C0C 002:453 JLINK_WriteReg(R10, 0x00000000)  returns 0x00 (0000ms, 0802ms total)
T3C0C 002:453 JLINK_WriteReg(R11, 0x00000000)  returns 0x00 (0000ms, 0802ms total)
T3C0C 002:453 JLINK_WriteReg(R12, 0x00000000)  returns 0x00 (0000ms, 0802ms total)
T3C0C 002:453 JLINK_WriteReg(R13, 0x20000800)  returns 0x00 (0000ms, 0802ms total)
T3C0C 002:453 JLINK_WriteReg(R14, 0x20000001)  returns 0x00 (0001ms, 0803ms total)
T3C0C 002:454 JLINK_WriteReg(R15, 0x200000F4)  returns 0x00 (0000ms, 0803ms total)
T3C0C 002:454 JLINK_WriteReg(XPSR, 0x01000000)  returns 0x00 (0000ms, 0803ms total)
T3C0C 002:454 JLINK_WriteReg(MSP, 0x20000800)  returns 0x00 (0000ms, 0803ms total)
T3C0C 002:454 JLINK_WriteReg(PSP, 0x20000800)  returns 0x00 (0000ms, 0803ms total)
T3C0C 002:454 JLINK_WriteReg(CFBP, 0x00000000)  returns 0x00 (0000ms, 0803ms total)
T3C0C 002:454 JLINK_SetBPEx(Addr = 0x20000000, Type = 0xFFFFFFF2)  returns 0x00000010 (0000ms, 0803ms total)
T3C0C 002:454 JLINK_Go() (0003ms, 0806ms total)
T3C0C 002:457 JLINK_IsHalted()  returns FALSE (0002ms, 0808ms total)
T3C0C 002:461 JLINK_IsHalted()  returns FALSE (0001ms, 0807ms total)
T3C0C 002:464 JLINK_IsHalted()  returns FALSE (0001ms, 0807ms total)
T3C0C 002:466 JLINK_IsHalted()  returns FALSE (0002ms, 0808ms total)
